
**** 07/01/19 00:28:27 ***** PSpice 16.6.0 (October 2012) ***** ID# 0 ********

 ** Profile: "SCHEMATIC1-waveform"  [ C:\Workspace\Cadence\01\waveform-pspicefiles\schematic1\waveform.sim ] 


 ****     CIRCUIT DESCRIPTION


******************************************************************************




** Creating circuit file "waveform.cir" 
** WARNING: THIS AUTOMATICALLY GENERATED FILE MAY BE OVERWRITTEN BY SUBSEQUENT SIMULATIONS

*Libraries: 
* Profile Libraries :
* Local Libraries :
* From [PSPICE NETLIST] section of C:\Cadence\SPB_Data\cdssetup\OrCAD_PSpice/16.6.0/PSpice.ini file:
.lib "nom.lib" 

*Analysis directives: 
.TRAN  0 5m 0 1u 
.OPTIONS ADVCONV
.PROBE64 V(alias(*)) I(alias(*)) W(alias(*)) D(alias(*)) NOISE(alias(*)) 
.INC "..\SCHEMATIC1.net" 



**** INCLUDING SCHEMATIC1.net ****
* source WAVEFORM
V_V1         +VCC 0 7.5Vdc
V_V2         -VCC 0 -7.5Vdc
R_R7         N01957 N01973  330 TC=0,0 
R_R5         0 N01923  139k TC=0,0 
R_R6         N01923 N01973  100k TC=0,0 
C_C2         0 N01915  .1u  TC=0,0 
R_R8         N01915 N01973  4.7k TC=0,0 
X_D4         0 N01999 1n5231/ON
D_D3         N01973 N01999 D1N5819/ON 
X_U2A         N01923 N01915 +VCC -VCC N01957 LM2904/ON
X_U2B         N01999 VOUT1 +VCC -VCC VOUT1 LM2904/ON

**** RESUMING waveform.cir ****
.END

**** 07/01/19 00:28:27 ***** PSpice 16.6.0 (October 2012) ***** ID# 0 ********

 ** Profile: "SCHEMATIC1-waveform"  [ C:\Workspace\Cadence\01\waveform-pspicefiles\schematic1\waveform.sim ] 


 ****     Diode MODEL PARAMETERS


******************************************************************************




               D1N5819/ON      X_D4.MD1        X_D4.MD3        X_D4.MD2        
  T_Measured                   27              27              27            
   T_Current                   25              25              25            
          IS   11.927900E-06    3.540710E-15    2.500000E-12    2.500000E-12 
           N    1.16517         1.05719          .173176         .274509     
          BV   40                                                            
         IBV    1.000000E-03                                                 
          RS     .062542         .62                                         
          TT   26.273000E-09   10.000000E-09                                 
         CJO  150.114000E-12  170.000000E-12                                 
          VJ    1.5                                                          
           M     .590203                                                     
          EG    1.3                              .1              .1          
         XTI    3.22098         1               0               0            


               X_U2A.dx        X_U2B.dx        
          IS  800.000000E-18  800.000000E-18 


**** 07/01/19 00:28:27 ***** PSpice 16.6.0 (October 2012) ***** ID# 0 ********

 ** Profile: "SCHEMATIC1-waveform"  [ C:\Workspace\Cadence\01\waveform-pspicefiles\schematic1\waveform.sim ] 


 ****     BJT MODEL PARAMETERS


******************************************************************************




               X_U2A.qx        X_U2B.qx        
               PNP             PNP             
       LEVEL    1               1            
          IS  800.000000E-18  800.000000E-18 
          BF   32.03           32.03         
          NF    1               1            
          BR    1               1            
          NR    1               1            
         ISS    0               0            
          RE    0               0            
          RC    0               0            
         CJE    0               0            
         VJE     .75             .75         
         CJC    0               0            
         VJC     .75             .75         
         MJC     .33             .33         
        XCJC    1               1            
         CJS    0               0            
         VJS     .75             .75         
          KF    0               0            
          AF    1               1            
          CN    2.2             2.2          
           D     .52             .52         


**** 07/01/19 00:28:27 ***** PSpice 16.6.0 (October 2012) ***** ID# 0 ********

 ** Profile: "SCHEMATIC1-waveform"  [ C:\Workspace\Cadence\01\waveform-pspicefiles\schematic1\waveform.sim ] 


 ****     Resistor MODEL PARAMETERS


******************************************************************************




               X_D4.MDR        X_D4.MDRBV      
           R    1               1            
         TC1                  284.722000E-06 


**** 07/01/19 00:28:27 ***** PSpice 16.6.0 (October 2012) ***** ID# 0 ********

 ** Profile: "SCHEMATIC1-waveform"  [ C:\Workspace\Cadence\01\waveform-pspicefiles\schematic1\waveform.sim ] 


 ****     INITIAL TRANSIENT SOLUTION       TEMPERATURE =   27.000 DEG C


******************************************************************************



 NODE   VOLTAGE     NODE   VOLTAGE     NODE   VOLTAGE     NODE   VOLTAGE


( +VCC)    7.5000  ( -VCC)   -7.5000  (VOUT1)     .0050  (N01915)     .0051     

(N01923)     .0051 (N01957)     .0049 (N01973)     .0049 (N01999)     .0050     

(X_D4.3)-11.48E-12 (X_D4.4)    -.1100 (X_D4.5)   -5.0104 (X_D4.6)    5.0154     

(X_U2A.6)-499.5E-09                   (X_U2A.7)     .0049                       

(X_U2A.8)     .0049                   (X_U2A.9)    0.0000                       

(X_U2B.6)-508.0E-09                   (X_U2B.7)     .0050                       

(X_U2B.8)     .0050                   (X_U2B.9)    0.0000                       

(X_U2A.10)     .5560                  (X_U2A.11)   -7.4704                      

(X_U2A.12)   -7.4704                  (X_U2A.13)     .5522                      

(X_U2A.14)     .5522                  (X_U2A.53)    5.7000                      

(X_U2A.54)   -6.6200                  (X_U2A.90)-72.43E-06                      

(X_U2A.91)   40.0000                  (X_U2A.92)  -40.0000                      

(X_U2A.99)    0.0000                  (X_U2B.10)     .5559                      

(X_U2B.11)   -7.4704                  (X_U2B.12)   -7.4704                      

(X_U2B.13)     .5521                  (X_U2B.14)     .5521                      

(X_U2B.53)    5.7000                  (X_U2B.54)   -6.6200                      

(X_U2B.90)-38.39E-06                  (X_U2B.91)   40.0000                      

(X_U2B.92)  -40.0000                  (X_U2B.99)    0.0000                  




    VOLTAGE SOURCE CURRENTS
    NAME         CURRENT

    V_V1        -8.025E-04
    V_V2         8.024E-04
    X_U2A.vb    -4.995E-12
    X_U2A.vc     5.696E-12
    X_U2A.ve     6.626E-12
    X_U2A.vlim  -7.243E-08
    X_U2A.vlp   -4.000E-11
    X_U2A.vln   -4.000E-11
    X_U2B.vb    -5.080E-12
    X_U2B.vc     5.696E-12
    X_U2B.ve     6.626E-12
    X_U2B.vlim  -3.839E-08
    X_U2B.vlp   -4.000E-11
    X_U2B.vln   -4.000E-11

    TOTAL POWER DISSIPATION   1.20E-02  WATTS



          JOB CONCLUDED

**** 07/01/19 00:28:27 ***** PSpice 16.6.0 (October 2012) ***** ID# 0 ********

 ** Profile: "SCHEMATIC1-waveform"  [ C:\Workspace\Cadence\01\waveform-pspicefiles\schematic1\waveform.sim ] 


 ****     JOB STATISTICS SUMMARY


******************************************************************************



  License check-out time            =         .73
  Total job time (using Solver 1)   =        3.38
