
**** 06/27/19 11:50:37 ***** PSpice 16.6.0 (October 2012) ***** ID# 0 ********

 ** Profile: "SCHEMATIC1-w2"  [ C:\Workspace\Cadence\01\w2-PSpiceFiles\SCHEMATIC1\w2.sim ] 


 ****     CIRCUIT DESCRIPTION


******************************************************************************




** Creating circuit file "w2.cir" 
** WARNING: THIS AUTOMATICALLY GENERATED FILE MAY BE OVERWRITTEN BY SUBSEQUENT SIMULATIONS

*Libraries: 
* Profile Libraries :
* Local Libraries :
* From [PSPICE NETLIST] section of C:\Cadence\SPB_Data\cdssetup\OrCAD_PSpice/16.6.0/PSpice.ini file:
.lib "nom.lib" 

*Analysis directives: 
.TRAN  0 .6m .5m 1u 
.OPTIONS ADVCONV
.PROBE64 V(alias(*)) I(alias(*)) W(alias(*)) D(alias(*)) NOISE(alias(*)) 
.INC "..\SCHEMATIC1.net" 



**** INCLUDING SCHEMATIC1.net ****
* source W2
R_R3         N05077 N05093  330 TC=0,0 
D_D1         N05093 N05119 D1N5819/ON 
C_C1         0 N05035  1n  TC=0,0 
R_R2         N05043 N05093  100k TC=0,0 
R_R1         0 N05043  139k TC=0,0 
X_D2         0 N05119 1n5231/ON
R_R4         N05035 N05093  4.7k TC=0,0 
V_V1         +VCC 0 7.5Vdc
V_V2         -VCC 0 -7.5Vdc
X_U11A         N05043 N05035 +VCC -VCC N05077 TL082/301/TI
X_U11B         N05119 VOUT2 +VCC -VCC VOUT2 TL082/301/TI

**** RESUMING w2.cir ****
.END

**** 06/27/19 11:50:37 ***** PSpice 16.6.0 (October 2012) ***** ID# 0 ********

 ** Profile: "SCHEMATIC1-w2"  [ C:\Workspace\Cadence\01\w2-PSpiceFiles\SCHEMATIC1\w2.sim ] 


 ****     Diode MODEL PARAMETERS


******************************************************************************




               D1N5819/ON      X_D2.MD1        X_D2.MD3        X_D2.MD2        
  T_Measured                   27              27              27            
   T_Current                   25              25              25            
          IS   11.927900E-06    3.540710E-15    2.500000E-12    2.500000E-12 
           N    1.16517         1.05719          .173176         .274509     
          BV   40                                                            
         IBV    1.000000E-03                                                 
          RS     .062542         .62                                         
          TT   26.273000E-09   10.000000E-09                                 
         CJO  150.114000E-12  170.000000E-12                                 
          VJ    1.5                                                          
           M     .590203                                                     
          EG    1.3                              .1              .1          
         XTI    3.22098         1               0               0            


               X_U11A.DX       X_U11B.DX       
          IS  800.000000E-18  800.000000E-18 


**** 06/27/19 11:50:37 ***** PSpice 16.6.0 (October 2012) ***** ID# 0 ********

 ** Profile: "SCHEMATIC1-w2"  [ C:\Workspace\Cadence\01\w2-PSpiceFiles\SCHEMATIC1\w2.sim ] 


 ****     Junction FET MODEL PARAMETERS


******************************************************************************




               X_U11A.JX       X_U11B.JX       
               PJF             PJF             
         VTO   -1              -1            
        BETA  270.100000E-06  270.100000E-06 
          IS   15.000000E-12   15.000000E-12 


**** 06/27/19 11:50:37 ***** PSpice 16.6.0 (October 2012) ***** ID# 0 ********

 ** Profile: "SCHEMATIC1-w2"  [ C:\Workspace\Cadence\01\w2-PSpiceFiles\SCHEMATIC1\w2.sim ] 


 ****     Resistor MODEL PARAMETERS


******************************************************************************




               X_D2.MDR        X_D2.MDRBV      
           R    1               1            
         TC1                  284.722000E-06 


**** 06/27/19 11:50:37 ***** PSpice 16.6.0 (October 2012) ***** ID# 0 ********

 ** Profile: "SCHEMATIC1-w2"  [ C:\Workspace\Cadence\01\w2-PSpiceFiles\SCHEMATIC1\w2.sim ] 


 ****     INITIAL TRANSIENT SOLUTION       TEMPERATURE =   27.000 DEG C


******************************************************************************



 NODE   VOLTAGE     NODE   VOLTAGE     NODE   VOLTAGE     NODE   VOLTAGE


( +VCC)    7.5000  ( -VCC)   -7.5000  (VOUT2) 32.25E-06  (N05035) 21.24E-06     

(N05043) 10.27E-06 (N05077) 21.49E-06 (N05093) 21.42E-06 (N05119) 21.28E-06     

(X_D2.3)-11.49E-12 (X_D2.4)    -.1100 (X_D2.5)   -5.0154 (X_D2.6)    5.0154     

(X_U11A.6)-3.052E-09                  (X_U11A.7) 21.52E-06                      

(X_U11A.8) 21.52E-06                  (X_U11A.9)    0.0000                      

(X_U11B.6)-4.568E-09                  (X_U11B.7) 32.25E-06                      

(X_U11B.8) 32.25E-06                  (X_U11B.9)    0.0000                      

(X_U11A.10)    -.3986                 (X_U11A.11)   -7.1546                     

(X_U11A.12)   -7.1545                 (X_U11A.53)    5.3000                     

(X_U11A.54)   -5.3000                 (X_U11A.90) 206.0E-09                     

(X_U11A.91)   25.0000                 (X_U11A.92)  -25.0000                     

(X_U11A.99)    0.0000                 (X_U11B.10)    -.3986                     

(X_U11B.11)   -7.1546                 (X_U11B.12)   -7.1545                     

(X_U11B.53)    5.3000                 (X_U11B.54)   -5.3000                     

(X_U11B.90) 37.55E-09                 (X_U11B.91)   25.0000                     

(X_U11B.92)  -25.0000                 (X_U11B.99)    0.0000                 




    VOLTAGE SOURCE CURRENTS
    NAME         CURRENT

    V_V1        -1.439E-02
    V_V2         1.439E-02
    X_U11A.VB   -3.052E-14
    X_U11A.VC    5.301E-12
    X_U11A.VE    5.301E-12
    X_U11A.VLIM   2.060E-10
    X_U11A.VLP  -2.500E-11
    X_U11A.VLN  -2.500E-11
    X_U11B.VB   -4.568E-14
    X_U11B.VC    5.301E-12
    X_U11B.VE    5.301E-12
    X_U11B.VLIM   3.755E-11
    X_U11B.VLP  -2.500E-11
    X_U11B.VLN  -2.500E-11

    TOTAL POWER DISSIPATION   2.16E-01  WATTS



          JOB CONCLUDED

**** 06/27/19 11:50:37 ***** PSpice 16.6.0 (October 2012) ***** ID# 0 ********

 ** Profile: "SCHEMATIC1-w2"  [ C:\Workspace\Cadence\01\w2-PSpiceFiles\SCHEMATIC1\w2.sim ] 


 ****     JOB STATISTICS SUMMARY


******************************************************************************



  Total job time (using Solver 1)   =        1.52
