
**** 07/06/19 11:20:37 ***** PSpice 16.6.0 (October 2012) ***** ID# 0 ********

 ** Profile: "SCHEMATIC1-t"  [ c:\users\hp\documents\tencent files\740167442\filerecv\temperature_1pspice\temperature_1\t-pspicefiles


 ****     CIRCUIT DESCRIPTION


******************************************************************************




** Creating circuit file "t.cir" 
** WARNING: THIS AUTOMATICALLY GENERATED FILE MAY BE OVERWRITTEN BY SUBSEQUENT SIMULATIONS

*Libraries: 
* Profile Libraries :
.INC "c:\users\hp\documents\tencent files\740167442\filerecv\temperature_1pspice\temperature_1\t-pspicefiles\schematic1\t\t_profile"
+ ".inc" 
* Local Libraries :
* From [PSPICE NETLIST] section of C:\Cadence\SPB_Data\cdssetup\OrCAD_PSpice/16.6.0/PSpice.ini file:

**** INCLUDING t_profile.inc ****
.LIB    ".\tmp20.lib" 

**** RESUMING t.cir ****
.lib "nom.lib" 

*Analysis directives: 
.TRAN  0 20m 0 
.OPTIONS ADVCONV
.PROBE64 V(alias(*)) I(alias(*)) W(alias(*)) D(alias(*)) NOISE(alias(*)) 
.INC "..\SCHEMATIC1.net" 



**** INCLUDING SCHEMATIC1.net ****
* source T
D_D2         0 N394881 D1N4617 
R_R23         0 N38492  100k TC=0,0 
R_R10         N39556 N39372  10k TC=0,0 
R_R6         N39032 N39020  330 TC=0,0 
R_R7         N39692 N39686  1.8k TC=0,0 
V_V7         +10V 0 10Vdc
X_U5A         N39006 N39002 +10V -10V N39032 LM2904/ON
D_D5         N39020 N39042 D1N5819/ON 
R_R12         0 N39198  16 TC=0,0 
R_R3         N39020 N39002  1.25k TC=0,0 
X_U10         N38492 N38498 +10V -10V N38520 LM741
R_R22         N38498 N43978  33k TC=0,0 
R_R13         N392921 N39228  56 TC=0,0 
R_R4         N39006 N43647  9.1k TC=0,0 
V_V6         -10V 0 -10Vdc
V_V12         TESTWAVE 0  AC 0
+SIN 3.5 0.3 100 0 0 0
R_R21         -10V N38498  100k TC=0,0 
C_C1         0 N39002  0.1u  TC=0,0 
X_U11B         N39042 N39072 +10V -10V N39072 LM2904/ON
X_U1         N39366 N39372 +10V -10V N39228 LM741
R_R11         N38520 N39366  390 TC=0,0 
X_U6         N39228 N39072 +10V -10V N39692 LM741
R_R5         N39006 N39020  100k TC=0,0 
X_Q1         +10V N40006 N39198 awb2n2222a PARAMS:                             
+                
D_D1         N39228 N394881 D1N4617 
X_D6         0 N39042 1n5231/ON
V_V13         N39556 0  AC 0
+SIN 3.5 0.06 100 0 0 0
R_R24         N39366 N39228  56k TC=0,0 
R_R25         N43647 0  130k TC=0,0 
R_R26         N43978 N38520  2.4k TC=0,0 
R_R29         N40006 N39686  1.8k TC=0,0 
D_D11         0 N39686 D1N4099 
D_D12         N392921 0 LP_M676-TYP 
X_U7         0 TMP20 N38520 T TMP20 
V_V10         T 0  AC 0
+SIN 40 10 .001 0 0 0
R_R14         N74381 TEMP  200 TC=0,0 
R_R30         N74271 N74381  30k TC=0,0 
R_R16         TMP20 N74969  100k TC=0,0 
R_R17         0 N74271  20k TC=0,0 
X_U12         N74969 N74271 +10V -10V TEMP LM741

**** RESUMING t.cir ****
.END

**** 07/06/19 11:20:37 ***** PSpice 16.6.0 (October 2012) ***** ID# 0 ********

 ** Profile: "SCHEMATIC1-t"  [ c:\users\hp\documents\tencent files\740167442\filerecv\temperature_1pspice\temperature_1\t-pspicefiles


 ****     Diode MODEL PARAMETERS


******************************************************************************




               D1N4617         D1N4099         D1N5819/ON      LP_M676-TYP     
          IS   77.530000E-18    3.317900E-06   11.927900E-06  980.130000E-24 
           N    1.196           3.512           1.16517         1.6749       
         ISR    1.272400E-06    2.906100E-06                                 
          NR    2.1594                                                       
         IKF                                                    7.140200E-03 
          BV    2.5491          6.9975         40                            
         IBV     .079582         .51729         1.000000E-03                 
          RS     .01358         1.000000E-03     .062542        1.6217       
          TT   94.600000E-09  312.000000E-09   26.273000E-09                 
         CJO  170.000000E-12   80.000000E-12  150.114000E-12                 
          VJ     .75             .3905          1.5                          
           M     .53348          .31349          .590203                     
          EG                                    1.3                          
         XTI                                    3.22098                      


               X_U5A.dx        X_U11B.dx       X_D6.MD1        X_D6.MD3        
  T_Measured                                   27              27            
   T_Current                                   25              25            
          IS  800.000000E-18  800.000000E-18    3.540710E-15    2.500000E-12 
           N                                    1.05719          .173176     
          RS                                     .62                         
          TT                                   10.000000E-09                 
         CJO                                  170.000000E-12                 
          EG                                                     .1          
         XTI                                    1               0            


               X_D6.MD2        X_U7.DL         X_U7.DVN        X_U7.DIN        
  T_Measured   27                                                            
   T_Current   25                                                            
          IS    2.500000E-12    9.500000E-12  100.000000E-18   10.000000E-15 
           N     .274509        1.63                                         
          EG     .1                                                          
         XTI    0               1.5                                          
          KF                                   70.000000E-15                 


               X_U7.DD         X_U7.DE         
          IS   10.000000E-15   30.000000E-18 


               X_U10.x_lm741.dx 
          IS  800.000000E-18 
          RS    1            


               X_U10.x_lm741.dy                X_U1.x_lm741.dx X_U1.x_lm741.dy 
          IS  800.000000E-18                  800.000000E-18  800.000000E-18 
          RS    1.000000E-03                    1               1.000000E-03 
         CJO   10.000000E-12                                   10.000000E-12 


               X_U6.x_lm741.dx X_U6.x_lm741.dy 
          IS  800.000000E-18  800.000000E-18 
          RS    1               1.000000E-03 
         CJO                   10.000000E-12 


               X_U12.x_lm741.dx 
          IS  800.000000E-18 
          RS    1            


               X_U12.x_lm741.dy 
          IS  800.000000E-18 
          RS    1.000000E-03 
         CJO   10.000000E-12 


**** 07/06/19 11:20:37 ***** PSpice 16.6.0 (October 2012) ***** ID# 0 ********

 ** Profile: "SCHEMATIC1-t"  [ c:\users\hp\documents\tencent files\740167442\filerecv\temperature_1pspice\temperature_1\t-pspicefiles


 ****     BJT MODEL PARAMETERS


******************************************************************************




               X_U5A.qx        X_U11B.qx       X_Q1.model4     X_U7.QPL        
               PNP             PNP             NPN             PNP             
       LEVEL    1               1               1               1            
          IS  800.000000E-18  800.000000E-18  166.780000E-15  100.000000E-18 
          BF   32.03           32.03          150             100            
          NF    1               1               1.074           1            
         VAF                                   78                            
         IKF                                     .5                          
         ISE                                    3.920000E-12                 
          NE                                    1.776                        
          BR    1               1               2.394           1            
          NR    1               1               1.074           1            
         VAR                                  500                            
          NC                                    1                            
         ISS    0               0               0               0            
          RB                                     .676                        
         RBM                                     .676                        
          RE    0               0                .1             0            
          RC    0               0                .654           0            
         CJE    0               0              22.250000E-12    0            
         VJE     .75             .75            1.333            .75         
         MJE                                     .522                        
         CJC    0               0               8.370000E-12    0            
         VJC     .75             .75            1.333            .75         
         MJC     .33             .33             .518            .33         
        XCJC    1               1                .5             1            
         CJS    0               0               0               0            
         VJS     .75             .75             .7              .75         
         MJS                                     .5                          
          TF                                  454.400000E-12                 
         XTF                                   13.24                         
         VTF                                    4.83                         
         ITF                                     .2163                       
          TR                                  117.500000E-09                 
         XTB                                    2.34                         
          KF    0               0               0               0            
          AF    1               1               1               1            
          CN    2.2             2.2             2.42            2.2          
           D     .52             .52             .87             .52         


               X_U7.QNL        X_U10.x_lm741.qx                X_U1.x_lm741.qx 
               NPN             NPN                             NPN             
       LEVEL    1               1                               1            
          IS  100.000000E-18  800.000000E-18                  800.000000E-18 
          BF  100              93.75                           93.75         
          NF    1               1                               1            
          BR    1               1                               1            
          NR    1               1                               1            
         ISS    0               0                               0            
          RE    0               0                               0            
          RC    0               0                               0            
         CJE    0               0                               0            
         VJE     .75             .75                             .75         
         CJC    0               0                               0            
         VJC     .75             .75                             .75         
         MJC     .33             .33                             .33         
        XCJC    1               1                               1            
         CJS    0               0                               0            
         VJS     .75             .75                             .75         
          KF    0               0                               0            
          AF    1               1                               1            
          CN    2.42            2.42                            2.42         
           D     .87             .87                             .87         


               X_U6.x_lm741.qx X_U12.x_lm741.qx 
               NPN             NPN             
       LEVEL    1               1            
          IS  800.000000E-18  800.000000E-18 
          BF   93.75           93.75         
          NF    1               1            
          BR    1               1            
          NR    1               1            
         ISS    0               0            
          RE    0               0            
          RC    0               0            
         CJE    0               0            
         VJE     .75             .75         
         CJC    0               0            
         VJC     .75             .75         
         MJC     .33             .33         
        XCJC    1               1            
         CJS    0               0            
         VJS     .75             .75         
          KF    0               0            
          AF    1               1            
          CN    2.42            2.42         
           D     .87             .87         


**** 07/06/19 11:20:37 ***** PSpice 16.6.0 (October 2012) ***** ID# 0 ********

 ** Profile: "SCHEMATIC1-t"  [ c:\users\hp\documents\tencent files\740167442\filerecv\temperature_1pspice\temperature_1\t-pspicefiles


 ****     Junction FET MODEL PARAMETERS


******************************************************************************




               X_U7.JC         
               NJF             
         VTO   -2            
        BETA  100.000000E-06 
          IS    1.000000E-18 


**** 07/06/19 11:20:37 ***** PSpice 16.6.0 (October 2012) ***** ID# 0 ********

 ** Profile: "SCHEMATIC1-t"  [ c:\users\hp\documents\tencent files\740167442\filerecv\temperature_1pspice\temperature_1\t-pspicefiles


 ****     MOSFET MODEL PARAMETERS


******************************************************************************




               X_U7.PSD        X_U7.POUT       X_U7.NOUT       X_U7.PIN        
               PMOS            PMOS            NMOS            PMOS            
       LEVEL    1               1               1               1            
           L  100.000000E-06  100.000000E-06  100.000000E-06  100.000000E-06 
           W  100.000000E-06  100.000000E-06  100.000000E-06  100.000000E-06 
         VTO    -.5             -.7              .7             -.35         
          KP  200.000000E-06  200.000000E-06  200.000000E-06  200.000000E-06 
       GAMMA    0               0               0               0            
         PHI     .6              .6              .6              .6          
      LAMBDA    0               0               0               0            
          IS    1.000000E-18   10.000000E-15   10.000000E-15   10.000000E-15 
          JS    0               0               0               0            
          PB     .8              .8              .8              .8          
        PBSW     .8              .8              .8              .8          
          CJ    0               0               0               0            
        CJSW    0               0               0               0            
        CGSO    0               0               0               0            
        CGDO    0               0               0               0            
        CGBO    0               0               0               0            
         TOX    0               0               0               0            
          XJ    0               0               0               0            
       UCRIT   10.000000E+03   10.000000E+03   10.000000E+03   10.000000E+03 
      DIOMOD    1               1               1               1            
         VFB    0               0               0               0            
        LETA    0               0               0               0            
        WETA    0               0               0               0            
          U0    0               0               0               0            
        TEMP    0               0               0               0            
         VDD    5               5               5               5            
       XPART    0               0               0               0            


               X_U7.NIN        X_U7.PINT       
               NMOS            PMOS            
       LEVEL    1               1            
           L  100.000000E-06  100.000000E-06 
           W  100.000000E-06  100.000000E-06 
         VTO     .35            -.35         
          KP  200.000000E-06  200.000000E-06 
       GAMMA    0               0            
         PHI     .6              .6          
      LAMBDA    0                .01         
          IS   10.000000E-15   10.000000E-15 
          JS    0               0            
          PB     .8              .8          
        PBSW     .8              .8          
          CJ    0               0            
        CJSW    0               0            
        CGSO    0               0            
        CGDO    0               0            
        CGBO    0               0            
         TOX    0               0            
          XJ    0               0            
       UCRIT   10.000000E+03   10.000000E+03 
      DIOMOD    1               1            
         VFB    0               0            
        LETA    0               0            
        WETA    0               0            
          U0    0               0            
        TEMP    0               0            
         VDD    5               5            
       XPART    0               0            


**** 07/06/19 11:20:37 ***** PSpice 16.6.0 (October 2012) ***** ID# 0 ********

 ** Profile: "SCHEMATIC1-t"  [ c:\users\hp\documents\tencent files\740167442\filerecv\temperature_1pspice\temperature_1\t-pspicefiles


 ****     Resistor MODEL PARAMETERS


******************************************************************************




               X_D6.MDR        X_D6.MDRBV      
           R    1               1            
         TC1                  284.722000E-06 


**** 07/06/19 11:20:37 ***** PSpice 16.6.0 (October 2012) ***** ID# 0 ********

 ** Profile: "SCHEMATIC1-t"  [ c:\users\hp\documents\tencent files\740167442\filerecv\temperature_1pspice\temperature_1\t-pspicefiles


 ****     INITIAL TRANSIENT SOLUTION       TEMPERATURE =   27.000 DEG C


******************************************************************************



 NODE   VOLTAGE     NODE   VOLTAGE     NODE   VOLTAGE     NODE   VOLTAGE


(    T)   40.0000  ( +10V)   10.0000  ( -10V)  -10.0000  ( TEMP)    3.4940      

(TMP20)    1.3992  (N38492)    -.0080 (N38498)    -.0080 (N38520)    3.5320     

(N39002)     .0053 (N39006)     .0053 (N39020)     .0052 (N39032)     .0052     

(N39042)     .0053 (N39072)     .0053 (N39198)    3.0077 (N39228)    3.1016     

(N39366)    3.5290 (N39372)    3.4995 (N39556)    3.5000 (N39686)    6.7573     

(N39692)    9.8152 (N40006)    3.8044 (N43647)     .0049 (N43978)    3.2920     

(N74271)    1.3911 (N74381)    3.4801 (N74969)    1.3911 (X_D6.3)-11.48E-12     

(X_D6.4)    -.1100 (X_D6.5)   -5.0101 (X_D6.6)    5.0154 (X_U7.1)   39.9600     

(X_U7.6)     .6096 (X_U7.7) 489.9E-06 (X_U7.8)    0.0000 (X_U7.9)    1.0637     

(N392921)    2.0055                   (N394881)    2.5150                       

(X_U5A.6)-526.2E-09                   (X_U5A.7)     .0052                       

(X_U5A.8)     .0052                   (X_U5A.9)    0.0000                       

(X_U7.10)    1.0637                   (X_U7.11)    1.0637                       

(X_U7.12) 489.9E-06                   (X_U7.13)    3.5315                       

(X_U7.14)    3.5315                   (X_U7.15)    3.5320                       

(X_U7.16)    3.5320                   (X_U7.17) 48.99E-06                       

(X_U7.18)    1.7657                   (X_U7.19)    1.7657                       

(X_U7.20)    3.5320                   (X_U7.21)    3.5320                       

(X_U7.22) 50.00E-06                   (X_U7.23)    1.3992                       

