
**** 07/06/19 17:31:41 ***** PSpice 16.6.0 (October 2012) ***** ID# 0 ********

 ** Profile: "SCHEMATIC1-t"  [ C:\Workspace\Cadence\temperature_1_2\t-pspicefiles\schematic1\t.sim ] 


 ****     CIRCUIT DESCRIPTION


******************************************************************************




** Creating circuit file "t.cir" 
** WARNING: THIS AUTOMATICALLY GENERATED FILE MAY BE OVERWRITTEN BY SUBSEQUENT SIMULATIONS

*Libraries: 
* Profile Libraries :
.INC "C:\Workspace\Cadence\temperature_1_2\t-pspicefiles\schematic1\t\t_profile.inc" 
* Local Libraries :
* From [PSPICE NETLIST] section of C:\Cadence\SPB_Data\cdssetup\OrCAD_PSpice/16.6.0/PSpice.ini file:

**** INCLUDING t_profile.inc ****
.LIB    ".\tmp20.lib" 

**** RESUMING t.cir ****
.lib "nom.lib" 

*Analysis directives: 
.TRAN  0 20m  0 
.OPTIONS ADVCONV
.PROBE64 V(alias(*)) I(alias(*)) W(alias(*)) D(alias(*)) NOISE(alias(*)) 
.INC "..\SCHEMATIC1.net" 



**** INCLUDING SCHEMATIC1.net ****
* source T
D_D5         0 N54496 D1N4617 
R_R12         0 N38492  100k TC=0,0 
R_R16         N38736 N39372  10k TC=0,0 
R_R2         N39032 N39020  330 TC=0,0 
R_R11         N39692 N39698  1.8k TC=0,0 
V_V1         +10V 0 10Vdc
X_U1A         N39006 N39002 +10V -10V N39032 LM2904/ON
D_D1         N39020 N39042 D1N5819/ON 
R_R19         0 BUZZER  16 TC=0,0 
R_R1         N39020 N39002  4.7k TC=0,0 
X_U3         N38492 N38498 +10V -10V N38520 LM741
R_R6         N38498 N43978  33k TC=0,0 
R_R4         N39006 N43647  9.1k TC=0,0 
V_V2         -10V 0 -10Vdc
V_V3         N38736 0  AC 0
+SIN 3.5 0.06 100 0 0 0
R_R10         -10V N38498  100k TC=0,0 
C_C1         0 N39002  0.1u  TC=0,0 
X_U1B         N39042 N39072 +10V -10V N39072 LM2904/ON
X_U4         N39366 N39372 +10V -10V DC LM741
R_R8         N38520 N39366  390 TC=0,0 
X_U2         DC N39072 +10V -10V N39692 LM741
R_R5         N39006 N39020  100k TC=0,0 
X_Q1         +10V AC BUZZER awb2n2222a PARAMS:                                 
+            
D_D4         DC N54496 D1N4617 
X_D2         0 N39042 1n5231/ON
R_R9         N39366 DC  56k TC=0,0 
R_R3         N43647 0  130k TC=0,0 
R_R7         N43978 N38520  2.4k TC=0,0 
R_R13         AC N39698  1.8k TC=0,0 
D_D3         0 N39698 D1N4099 
X_U5         N52083 N52089 +10V -10V TEMPERATURE LM741
R_R15         0 N52089  20k TC=0,0 
X_U6         0 N53476 N38520 N53326 TMP20 
R_R18         N53476 N52083  100k TC=0,0 
V_V4         N53326 0  AC 0
+SIN 40 10 .001 0 0 0
D_D6         LED 0 LP_A676-TYP 
R_R17         LED DC  56 TC=0,0 
R_R14         N59190 TEMPERATURE  200 TC=0,0 
R_R20         N52089 N59190  30k TC=0,0 

**** RESUMING t.cir ****
.END

**** 07/06/19 17:31:41 ***** PSpice 16.6.0 (October 2012) ***** ID# 0 ********

 ** Profile: "SCHEMATIC1-t"  [ C:\Workspace\Cadence\temperature_1_2\t-pspicefiles\schematic1\t.sim ] 


 ****     Diode MODEL PARAMETERS


******************************************************************************




               D1N4617         D1N4099         D1N5819/ON      LP_A676-TYP     
          IS   77.530000E-18    3.317900E-06   11.927900E-06   10.000000E-21 
           N    1.196           3.512           1.16517         1.7986       
         ISR    1.272400E-06    2.906100E-06                                 
          NR    2.1594                                                       
          BV    2.5491          6.9975         40                            
         IBV     .079582         .51729         1.000000E-03                 
          RS     .01358         1.000000E-03     .062542        2.1866       
          TT   94.600000E-09  312.000000E-09   26.273000E-09                 
         CJO  170.000000E-12   80.000000E-12  150.114000E-12                 
          VJ     .75             .3905          1.5                          
           M     .53348          .31349          .590203                     
          EG                                    1.3                          
         XTI                                    3.22098                      


               X_U1A.dx        X_U1B.dx        X_D2.MD1        X_D2.MD3        
  T_Measured                                   27              27            
   T_Current                                   25              25            
          IS  800.000000E-18  800.000000E-18    3.540710E-15    2.500000E-12 
           N                                    1.05719          .173176     
          RS                                     .62                         
          TT                                   10.000000E-09                 
         CJO                                  170.000000E-12                 
          EG                                                     .1          
         XTI                                    1               0            


               X_D2.MD2        X_U6.DL         X_U6.DVN        X_U6.DIN        
  T_Measured   27                                                            
   T_Current   25                                                            
          IS    2.500000E-12    9.500000E-12  100.000000E-18   10.000000E-15 
           N     .274509        1.63                                         
          EG     .1                                                          
         XTI    0               1.5                                          
          KF                                   70.000000E-15                 


               X_U6.DD         X_U6.DE         X_U3.x_lm741.dx X_U3.x_lm741.dy 
          IS   10.000000E-15   30.000000E-18  800.000000E-18  800.000000E-18 
          RS                                    1               1.000000E-03 
         CJO                                                   10.000000E-12 


               X_U4.x_lm741.dx X_U4.x_lm741.dy X_U2.x_lm741.dx X_U2.x_lm741.dy 
          IS  800.000000E-18  800.000000E-18  800.000000E-18  800.000000E-18 
          RS    1               1.000000E-03    1               1.000000E-03 
         CJO                   10.000000E-12                   10.000000E-12 


               X_U5.x_lm741.dx X_U5.x_lm741.dy 
          IS  800.000000E-18  800.000000E-18 
          RS    1               1.000000E-03 
         CJO                   10.000000E-12 


**** 07/06/19 17:31:41 ***** PSpice 16.6.0 (October 2012) ***** ID# 0 ********

 ** Profile: "SCHEMATIC1-t"  [ C:\Workspace\Cadence\temperature_1_2\t-pspicefiles\schematic1\t.sim ] 


 ****     BJT MODEL PARAMETERS


******************************************************************************




               X_U1A.qx        X_U1B.qx        X_Q1.model4     X_U6.QPL        
               PNP             PNP             NPN             PNP             
       LEVEL    1               1               1               1            
          IS  800.000000E-18  800.000000E-18  166.780000E-15  100.000000E-18 
          BF   32.03           32.03          150             100            
          NF    1               1               1.074           1            
         VAF                                   78                            
         IKF                                     .5                          
         ISE                                    3.920000E-12                 
          NE                                    1.776                        
          BR    1               1               2.394           1            
          NR    1               1               1.074           1            
         VAR                                  500                            
          NC                                    1                            
         ISS    0               0               0               0            
          RB                                     .676                        
         RBM                                     .676                        
          RE    0               0                .1             0            
          RC    0               0                .654           0            
         CJE    0               0              22.250000E-12    0            
         VJE     .75             .75            1.333            .75         
         MJE                                     .522                        
         CJC    0               0               8.370000E-12    0            
         VJC     .75             .75            1.333            .75         
         MJC     .33             .33             .518            .33         
        XCJC    1               1                .5             1            
         CJS    0               0               0               0            
         VJS     .75             .75             .7              .75         
         MJS                                     .5                          
          TF                                  454.400000E-12                 
         XTF                                   13.24                         
         VTF                                    4.83                         
         ITF                                     .2163                       
          TR                                  117.500000E-09                 
         XTB                                    2.34                         
          KF    0               0               0               0            
          AF    1               1               1               1            
          CN    2.2             2.2             2.42            2.2          
           D     .52             .52             .87             .52         


               X_U6.QNL        X_U3.x_lm741.qx X_U4.x_lm741.qx X_U2.x_lm741.qx 
               NPN             NPN             NPN             NPN             
       LEVEL    1               1               1               1            
          IS  100.000000E-18  800.000000E-18  800.000000E-18  800.000000E-18 
          BF  100              93.75           93.75           93.75         
          NF    1               1               1               1            
          BR    1               1               1               1            
          NR    1               1               1               1            
         ISS    0               0               0               0            
          RE    0               0               0               0            
          RC    0               0               0               0            
         CJE    0               0               0               0            
         VJE     .75             .75             .75             .75         
         CJC    0               0               0               0            
         VJC     .75             .75             .75             .75         
         MJC     .33             .33             .33             .33         
        XCJC    1               1               1               1            
         CJS    0               0               0               0            
         VJS     .75             .75             .75             .75         
          KF    0               0               0               0            
          AF    1               1               1               1            
          CN    2.42            2.42            2.42            2.42         
           D     .87             .87             .87             .87         


               X_U5.x_lm741.qx 
               NPN             
       LEVEL    1            
          IS  800.000000E-18 
          BF   93.75         
          NF    1            
          BR    1            
          NR    1            
         ISS    0            
          RE    0            
          RC    0            
         CJE    0            
         VJE     .75         
         CJC    0            
         VJC     .75         
         MJC     .33         
        XCJC    1            
         CJS    0            
         VJS     .75         
          KF    0            
          AF    1            
          CN    2.42         
           D     .87         


**** 07/06/19 17:31:41 ***** PSpice 16.6.0 (October 2012) ***** ID# 0 ********

 ** Profile: "SCHEMATIC1-t"  [ C:\Workspace\Cadence\temperature_1_2\t-pspicefiles\schematic1\t.sim ] 


 ****     Junction FET MODEL PARAMETERS


******************************************************************************




               X_U6.JC         
               NJF             
         VTO   -2            
        BETA  100.000000E-06 
          IS    1.000000E-18 


**** 07/06/19 17:31:41 ***** PSpice 16.6.0 (October 2012) ***** ID# 0 ********

 ** Profile: "SCHEMATIC1-t"  [ C:\Workspace\Cadence\temperature_1_2\t-pspicefiles\schematic1\t.sim ] 


 ****     MOSFET MODEL PARAMETERS


******************************************************************************




               X_U6.PSD        X_U6.POUT       X_U6.NOUT       X_U6.PIN        
               PMOS            PMOS            NMOS            PMOS            
       LEVEL    1               1               1               1            
           L  100.000000E-06  100.000000E-06  100.000000E-06  100.000000E-06 
           W  100.000000E-06  100.000000E-06  100.000000E-06  100.000000E-06 
         VTO    -.5             -.7              .7             -.35         
          KP  200.000000E-06  200.000000E-06  200.000000E-06  200.000000E-06 
       GAMMA    0               0               0               0            
         PHI     .6              .6              .6              .6          
      LAMBDA    0               0               0               0            
          IS    1.000000E-18   10.000000E-15   10.000000E-15   10.000000E-15 
          JS    0               0               0               0            
          PB     .8              .8              .8              .8          
        PBSW     .8              .8              .8              .8          
          CJ    0               0               0               0            
        CJSW    0               0               0               0            
        CGSO    0               0               0               0            
        CGDO    0               0               0               0            
        CGBO    0               0               0               0            
         TOX    0               0               0               0            
          XJ    0               0               0               0            
       UCRIT   10.000000E+03   10.000000E+03   10.000000E+03   10.000000E+03 
      DIOMOD    1               1               1               1            
         VFB    0               0               0               0            
        LETA    0               0               0               0            
        WETA    0               0               0               0            
          U0    0               0               0               0            
        TEMP    0               0               0               0            
         VDD    5               5               5               5            
       XPART    0               0               0               0            


               X_U6.NIN        X_U6.PINT       
               NMOS            PMOS            
       LEVEL    1               1            
           L  100.000000E-06  100.000000E-06 
           W  100.000000E-06  100.000000E-06 
         VTO     .35            -.35         
          KP  200.000000E-06  200.000000E-06 
       GAMMA    0               0            
         PHI     .6              .6          
      LAMBDA    0                .01         
          IS   10.000000E-15   10.000000E-15 
          JS    0               0            
          PB     .8              .8          
        PBSW     .8              .8          
          CJ    0               0            
        CJSW    0               0            
        CGSO    0               0            
        CGDO    0               0            
        CGBO    0               0            
         TOX    0               0            
          XJ    0               0            
       UCRIT   10.000000E+03   10.000000E+03 
      DIOMOD    1               1            
         VFB    0               0            
        LETA    0               0            
        WETA    0               0            
          U0    0               0            
        TEMP    0               0            
         VDD    5               5            
       XPART    0               0            


**** 07/06/19 17:31:41 ***** PSpice 16.6.0 (October 2012) ***** ID# 0 ********

 ** Profile: "SCHEMATIC1-t"  [ C:\Workspace\Cadence\temperature_1_2\t-pspicefiles\schematic1\t.sim ] 


 ****     Resistor MODEL PARAMETERS


******************************************************************************




               X_D2.MDR        X_D2.MDRBV      
           R    1               1            
         TC1                  284.722000E-06 


**** 07/06/19 17:31:41 ***** PSpice 16.6.0 (October 2012) ***** ID# 0 ********

 ** Profile: "SCHEMATIC1-t"  [ C:\Workspace\Cadence\temperature_1_2\t-pspicefiles\schematic1\t.sim ] 


 ****     INITIAL TRANSIENT SOLUTION       TEMPERATURE =   27.000 DEG C


******************************************************************************



 NODE   VOLTAGE     NODE   VOLTAGE     NODE   VOLTAGE     NODE   VOLTAGE


(   AC)    3.8044  (   DC)    3.1013  (  LED)    2.0023  ( +10V)   10.0000      

( -10V)  -10.0000  (BUZZER)    3.0077 (N38492)    -.0080 (N38498)    -.0080     

(N38520)    3.5320 (N38736)    3.5000 (N39002)     .0051 (N39006)     .0051     

(N39020)     .0049 (N39032)     .0049 (N39042)     .0050 (N39072)     .0050     

(N39366)    3.5290 (N39372)    3.4995 (N39692)    9.8152 (N39698)    6.7573     

(N43647)     .0047 (N43978)    3.2920 (N52083)    1.3911 (N52089)    1.3911     

(N53326)   40.0000 (N53476)    1.3992 (N54496)    2.5149 (N59190)    3.4801     

(X_D2.3)-11.48E-12 (X_D2.4)    -.1100 (X_D2.5)   -5.0104 (X_D2.6)    5.0154     

(X_U6.1)   39.9600 (X_U6.6)     .6096 (X_U6.7) 489.9E-06 (X_U6.8)    0.0000     

(X_U6.9)    1.0637 (X_U1A.6)-499.8E-09                   (X_U1A.7)     .0049    

(X_U1A.8)     .0049                   (X_U1A.9)    0.0000                       

(X_U1B.6)-508.3E-09                   (X_U1B.7)     .0050                       

(X_U1B.8)     .0050                   (X_U1B.9)    0.0000                       

(X_U6.10)    1.0637                   (X_U6.11)    1.0637                       

(X_U6.12) 489.9E-06                   (X_U6.13)    3.5315                       

(X_U6.14)    3.5315                   (X_U6.15)    3.5320                       

(X_U6.16)    3.5320                   (X_U6.17) 48.99E-06                       

(X_U6.18)    1.7657                   (X_U6.19)    1.7657                       

(X_U6.20)    3.5320                   (X_U6.21)    3.5320                       

(X_U6.22) 50.00E-06                   (X_U6.23)    1.3992                       

(X_U6.24)     .5955                   (X_U6.25)     .5955                       

(X_U6.26)     .7147                   (X_U6.27)     .7147                       

(X_U6.28)     .6996                   (X_U6.29)     .6996                       

(X_U6.30)     .6996                   (X_U6.31)     .6996                       

(X_U6.32)    1.7660                   (X_U6.33)    1.7660                       

(X_U6.34)   -1.7660                   (X_U6.35)     .6996                       

(X_U6.36)     .6996                   (X_U6.37) 176.6E-06                       

(X_U6.38)-176.6E-06                   (X_U6.39) 69.95E-06                       

(X_U6.40)     .6991                   (X_U6.41)     .6991                       

(X_U6.42)     .6996                   (X_U6.43)     .6996                       

