
**** 07/01/19 00:32:52 ***** PSpice 16.6.0 (October 2012) ***** ID# 0 ********

 ** Profile: "SCHEMATIC1-w3"  [ C:\Workspace\Cadence\01\w3-pspicefiles\schematic1\w3.sim ] 


 ****     CIRCUIT DESCRIPTION


******************************************************************************




** Creating circuit file "w3.cir" 
** WARNING: THIS AUTOMATICALLY GENERATED FILE MAY BE OVERWRITTEN BY SUBSEQUENT SIMULATIONS

*Libraries: 
* Profile Libraries :
* Local Libraries :
* From [PSPICE NETLIST] section of C:\Cadence\SPB_Data\cdssetup\OrCAD_PSpice/16.6.0/PSpice.ini file:
.lib "nom.lib" 

*Analysis directives: 
.TRAN  0 5ms 1u 1u 
.OPTIONS ADVCONV
.PROBE64 V(alias(*)) I(alias(*)) W(alias(*)) D(alias(*)) NOISE(alias(*)) 
.INC "..\SCHEMATIC1.net" 



**** INCLUDING SCHEMATIC1.net ****
* source W3
R_R12         N05986 N06044  4.7k TC=0,0 
X_U12B         N06070 VOUT3 +VCC -VCC VOUT3 LM2904/ON
R_R11         N06028 N06044  330 TC=0,0 
X_D6         0 N06070 1n5231/ON
D_D7         N06044 N06070 D1N4148_1 
R_R9         0 N05994  139k TC=0,0 
X_U11A         N05994 N05986 +VCC -VCC N06028 LM2904/ON
R_R10         N05994 N06044  100k TC=0,0 
C_C3         0 N05986  .1u  TC=0,0 
V_V2         -VCC 0 -7.5Vdc
V_V1         +VCC 0 7.5Vdc
V_V3         N07041 0 -5Vdc
D_D9         N07041 0 D1N5819 

**** RESUMING w3.cir ****
.END

**** 07/01/19 00:32:52 ***** PSpice 16.6.0 (October 2012) ***** ID# 0 ********

 ** Profile: "SCHEMATIC1-w3"  [ C:\Workspace\Cadence\01\w3-pspicefiles\schematic1\w3.sim ] 


 ****     Diode MODEL PARAMETERS


******************************************************************************




               D1N4148_1       D1N5819         X_U12B.dx       X_D6.MD1        
  T_Measured                                                   27            
   T_Current                                                   25            
          IS    2.682000E-09    2.835000E-06  800.000000E-18    3.540710E-15 
           N    1.836                                           1.05719      
         ISR    1.565000E-09   16.980000E-06                                 
         IKF     .04417          .3227                                       
          BV  100                                                            
         IBV  100.000000E-06                                                 
          RS     .5664           .04712                          .62         
          TT   11.540000E-09                                   10.000000E-09 
         CJO    4.000000E-12  302.500000E-12                  170.000000E-12 
          VJ     .5              .75                                         
           M     .3333           .7206                                       
         XTI                    0                               1            


               X_D6.MD3        X_D6.MD2        X_U11A.dx       
  T_Measured   27              27                            
   T_Current   25              25                            
          IS    2.500000E-12    2.500000E-12  800.000000E-18 
           N     .173176         .274509                     
          EG     .1              .1                          
         XTI    0               0                            


**** 07/01/19 00:32:52 ***** PSpice 16.6.0 (October 2012) ***** ID# 0 ********

 ** Profile: "SCHEMATIC1-w3"  [ C:\Workspace\Cadence\01\w3-pspicefiles\schematic1\w3.sim ] 


 ****     BJT MODEL PARAMETERS


******************************************************************************




               X_U12B.qx       X_U11A.qx       
               PNP             PNP             
       LEVEL    1               1            
          IS  800.000000E-18  800.000000E-18 
          BF   32.03           32.03         
          NF    1               1            
          BR    1               1            
          NR    1               1            
         ISS    0               0            
          RE    0               0            
          RC    0               0            
         CJE    0               0            
         VJE     .75             .75         
         CJC    0               0            
         VJC     .75             .75         
         MJC     .33             .33         
        XCJC    1               1            
         CJS    0               0            
         VJS     .75             .75         
          KF    0               0            
          AF    1               1            
          CN    2.2             2.2          
           D     .52             .52         


**** 07/01/19 00:32:52 ***** PSpice 16.6.0 (October 2012) ***** ID# 0 ********

 ** Profile: "SCHEMATIC1-w3"  [ C:\Workspace\Cadence\01\w3-pspicefiles\schematic1\w3.sim ] 


 ****     Resistor MODEL PARAMETERS


******************************************************************************




               X_D6.MDR        X_D6.MDRBV      
           R    1               1            
         TC1                  284.722000E-06 


**** 07/01/19 00:32:52 ***** PSpice 16.6.0 (October 2012) ***** ID# 0 ********

 ** Profile: "SCHEMATIC1-w3"  [ C:\Workspace\Cadence\01\w3-pspicefiles\schematic1\w3.sim ] 


 ****     INITIAL TRANSIENT SOLUTION       TEMPERATURE =   27.000 DEG C


******************************************************************************



 NODE   VOLTAGE     NODE   VOLTAGE     NODE   VOLTAGE     NODE   VOLTAGE


( +VCC)    7.5000  ( -VCC)   -7.5000  (VOUT3)     .0294  (N05986)     .0051     

(N05994)     .0051 (N06028)     .0049 (N06044)     .0049 (N06070)     .0294     

(N07041)   -5.0000 (X_D6.3)-11.44E-12 (X_D6.4)    -.1100 (X_D6.5)   -4.9860     

(X_D6.6)    5.0154 (X_U11A.6)-500.6E-09                  (X_U11A.7)     .0049   

(X_U11A.8)     .0049                  (X_U11A.9)    0.0000                      

(X_U12B.6)-2.536E-06                  (X_U12B.7)     .0294                      

(X_U12B.8)     .0294                  (X_U12B.9)    0.0000                      

(X_U11A.10)     .5560                 (X_U11A.11)   -7.4704                     

(X_U11A.12)   -7.4704                 (X_U11A.13)     .5522                     

(X_U11A.14)     .5522                 (X_U11A.53)    5.7000                     

(X_U11A.54)   -6.6200                 (X_U11A.90)-41.93E-06                     

(X_U11A.91)   40.0000                 (X_U11A.92)  -40.0000                     

(X_U11A.99)    0.0000                 (X_U12B.10)     .5803                     

(X_U12B.11)   -7.4704                 (X_U12B.12)   -7.4704                     

(X_U12B.13)     .5765                 (X_U12B.14)     .5765                     

(X_U12B.53)    5.7000                 (X_U12B.54)   -6.6200                     

(X_U12B.90)-38.39E-06                 (X_U12B.91)   40.0000                     

(X_U12B.92)  -40.0000                 (X_U12B.99)    0.0000                 




    VOLTAGE SOURCE CURRENTS
    NAME         CURRENT

    V_V2         8.024E-04
    V_V1        -8.025E-04
    V_V3         7.652E-05
    X_U12B.vb   -2.536E-11
    X_U12B.vc    5.671E-12
    X_U12B.ve    6.650E-12
    X_U12B.vlim  -3.839E-08
    X_U12B.vlp  -4.000E-11
    X_U12B.vln  -4.000E-11
    X_U11A.vb   -5.006E-12
    X_U11A.vc    5.696E-12
    X_U11A.ve    6.626E-12
    X_U11A.vlim  -4.193E-08
    X_U11A.vlp  -4.000E-11
    X_U11A.vln  -4.000E-11

    TOTAL POWER DISSIPATION   1.24E-02  WATTS



          JOB CONCLUDED

**** 07/01/19 00:32:52 ***** PSpice 16.6.0 (October 2012) ***** ID# 0 ********

 ** Profile: "SCHEMATIC1-w3"  [ C:\Workspace\Cadence\01\w3-pspicefiles\schematic1\w3.sim ] 


 ****     JOB STATISTICS SUMMARY


******************************************************************************



  License check-out time            =         .77
  Total job time (using Solver 1)   =        3.08
